T0388 1130:582 SEGGER J-Link V6.30c Log File (0000ms, 17635ms total)
T0388 1130:582 DLL Compiled: Feb  9 2018 17:20:54 (0000ms, 17635ms total)
T0388 1130:582 Logging started @ 2018-02-11 21:58 (0000ms, 17635ms total)
T0388 1130:583 JLINK_SetWarnOutHandler(...) (0000ms, 17636ms total)
T0388 1130:583 JLINK_OpenEx(...)
Firmware: J-Link V9 compiled Feb  2 2018 18:12:38
Hardware: V9.40
S/N: 59400743
Feature(s): RDI, GDB, FlashDL, FlashBP, JFlash
TELNET listener socket opened on port 19021C:\Program Files (x86)\SEGGER\JLink_V612j\JLinkDevices.xml evaluated successfully.WEBSRV 
Starting webserver (0116ms, 17752ms total)
T0388 1130:583 WEBSRV Webserver running on local port 19080 (0117ms, 17753ms total)
T0388 1130:583   returns O.K. (0117ms, 17753ms total)
T0388 1130:701 JLINK_GetEmuCaps()  returns 0xB9FF7BBF (0000ms, 17753ms total)
T0388 1130:701 JLINK_TIF_GetAvailable(...) (0001ms, 17754ms total)
T0388 1130:702 JLINK_SetErrorOutHandler(...) (0000ms, 17754ms total)
T0388 1130:702 JLINK_ExecCommand("ProjectFile = "E:\Github\RTT\bsp\stm32f10x-HAL\JLinkSettings.ini"", ...).   returns 0x00 (0002ms, 17756ms total)
T0388 1130:704 JLINK_ExecCommand("Device = STM32F103ZE", ...). Device "STM32F103ZE" selected.  returns 0x00 (0002ms, 17758ms total)
T0388 1130:706 JLINK_ExecCommand("DisableConnectionTimeout", ...).   returns 0x01 (0000ms, 17758ms total)
T0388 1130:706 JLINK_GetHardwareVersion()  returns 0x16F30 (0000ms, 17758ms total)
T0388 1130:706 JLINK_GetDLLVersion()  returns 63003 (0000ms, 17758ms total)
T0388 1130:706 JLINK_GetFirmwareString(...) (0000ms, 17758ms total)
T0388 1130:706 JLINK_GetDLLVersion()  returns 63003 (0000ms, 17758ms total)
T0388 1130:706 JLINK_GetCompileDateTime() (0000ms, 17758ms total)
T0388 1130:706 JLINK_GetFirmwareString(...) (0000ms, 17758ms total)
T0388 1130:706 JLINK_GetHardwareVersion()  returns 0x16F30 (0000ms, 17758ms total)
T0388 1130:706 JLINK_TIF_Select(JLINKARM_TIF_SWD)  returns 0x00 (0003ms, 17761ms total)
T0388 1130:709 JLINK_SetSpeed(50000) (0001ms, 17762ms total)
T0388 1130:710 JLINK_GetId() >0x10B TIF>Found SW-DP with ID 0x1BA01477 >0x0D TIF> >0x28 TIF> >0x0D TIF> >0x28 TIF> >0x0D TIF> >0x28 TIF> >0x0D TIF> >0x28 TIF> >0x0D TIF> >0x21 TIF> >0x0D TIF> >0x28 TIF> >0x0D TIF> >0x28 TIF> >0x0D TIF> >0x28 TIF> >0x0D TIF> >0x21 TIF> >0x0D TIF> >0x21 TIF> >0x0D TIF> >0x28 TIF> >0x0D TIF> >0x21 TIF> >0x0D TIF> >0x21 TIF> >0x0D TIF> >0x28 TIF> >0x0D TIF> >0x21 TIF> >0x0D TIF> >0x21 TIF> >0x0D TIF> >0x28 TIF> >0x0D TIF> >0x21 TIF> >0x0D TIF> >0x21 TIF> >0x0D TIF>
 >0x28 TIF> >0x0D TIF> >0x21 TIF> >0x0D TIF> >0x21 TIF> >0x0D TIF> >0x28 TIF> >0x0D TIF> >0x21 TIF> >0x0D TIF> >0x21 TIF> >0x0D TIF> >0x28 TIF> >0x0D TIF> >0x21 TIF> >0x0D TIF> >0x21 TIF> >0x10B TIF>Found SW-DP with ID 0x1BA01477 >0x0D TIF> >0x28 TIF> >0x0D TIF> >0x28 TIF> >0x0D TIF> >0x28 TIF> >0x0D TIF> >0x28 TIF> >0x0D TIF> >0x21 TIF> >0x0D TIF> >0x28 TIF>Scanning AP map to find all available APs >0x0D TIF> >0x28 TIF> >0x0D TIF> >0x21 TIF> >0x0D TIF> >0x21 TIF> >0x0D TIF> >0x28 TIF> >0x0D TIF>
 >0x21 TIF> >0x0D TIF> >0x21 TIF>AP[1]: Stopped AP scan as end of AP map has been reachedAP[0]: AHB-AP (IDR: 0x14770011)Iterating through AP map to find AHB-AP to use >0x42 TIF> >0x28 TIF> >0x0D TIF> >0x28 TIF> >0x0D TIF> >0x21 TIF> >0x0D TIF> >0x21 TIF> >0x42 TIF> >0x28 TIF> >0x0D TIF> >0x28 TIF> >0x0D TIF> >0x28 TIF> >0x0D TIF> >0x21 TIF> >0x0D TIF> >0x21 TIF>AP[0]: Core foundAP[0]: AHB-AP ROM base: 0xE00FF000 >0x0D TIF> >0x28 TIF> >0x0D TIF> >0x28 TIF> >0x0D TIF> >0x28 TIF> >0x0D TIF> >0x21 TIF>
 >0x0D TIF> >0x21 TIF>CPUID register: 0x411FC231. Implementer code: 0x41 (ARM)Found Cortex-M3 r1p1, Little endian. -- CPU_ReadMem(4 bytes @ 0xE000EDF0) -- CPU_WriteMem(4 bytes @ 0xE000EDF0) -- CPU_ReadMem(4 bytes @ 0xE0002000)FPUnit: 6 code (BP) slots and 2 literal slots -- CPU_ReadMem(4 bytes @ 0xE000EDFC) -- CPU_WriteMem(4 bytes @ 0xE000EDFC) -- CPU_ReadMem(4 bytes @ 0xE0001000) -- CPU_WriteMem(4 bytes @ 0xE0001000) -- CPU_ReadMem(4 bytes @ 0xE000ED88) -- CPU_WriteMem(4 bytes @ 0xE000ED88)
 -- CPU_ReadMem(4 bytes @ 0xE000ED88) -- CPU_WriteMem(4 bytes @ 0xE000ED88)CoreSight components:ROMTbl[0] @ E00FF000 -- CPU_ReadMem(16 bytes @ 0xE00FF000) -- CPU_ReadMem(16 bytes @ 0xE000EFF0) -- CPU_ReadMem(16 bytes @ 0xE000EFE0)ROMTbl[0][0]: E000E000, CID: B105E00D, PID: 001BB000 SCS -- CPU_ReadMem(16 bytes @ 0xE0001FF0) -- CPU_ReadMem(16 bytes @ 0xE0001FE0)ROMTbl[0][1]: E0001000, CID: B105E00D, PID: 001BB002 DWT -- CPU_ReadMem(16 bytes @ 0xE0002FF0) -- CPU_ReadMem(16 bytes @ 0xE0002FE0)
ROMTbl[0][2]: E0002000, CID: B105E00D, PID: 000BB003 FPB -- CPU_ReadMem(16 bytes @ 0xE0000FF0) -- CPU_ReadMem(16 bytes @ 0xE0000FE0)ROMTbl[0][3]: E0000000, CID: B105E00D, PID: 001BB001 ITM -- CPU_ReadMem(16 bytes @ 0xE00FF010) -- CPU_ReadMem(16 bytes @ 0xE0040FF0) -- CPU_ReadMem(16 bytes @ 0xE0040FE0)ROMTbl[0][4]: E0040000, CID: B105900D, PID: 001BB923 TPIU-Lite -- CPU_ReadMem(16 bytes @ 0xE0041FF0) -- CPU_ReadMem(16 bytes @ 0xE0041FE0)ROMTbl[0][5]: E0041000, CID: B105900D, PID: 101BB924 ETM-M3
 >0x0D TIF> >0x21 TIF>  returns 0x1BA01477 (0254ms, 18016ms total)
T0388 1130:964 JLINK_GetDLLVersion()  returns 63003 (0000ms, 18016ms total)
T0388 1130:964 JLINK_CORE_GetFound()  returns 0x30000FF (0000ms, 18016ms total)
T0388 1130:964 JLINK_GetDebugInfo(0x100 = JLINKARM_ROM_TABLE_ADDR_INDEX) -- Value=0xE00FF000  returns 0x00 (0000ms, 18016ms total)
T0388 1130:964 JLINK_GetDebugInfo(0x100 = JLINKARM_ROM_TABLE_ADDR_INDEX) -- Value=0xE00FF000  returns 0x00 (0000ms, 18016ms total)
T0388 1130:964 JLINK_GetDebugInfo(0x101 = JLINKARM_DEBUG_INFO_ETM_ADDR_INDEX) -- Value=0xE0041000  returns 0x00 (0000ms, 18016ms total)
T0388 1130:964 JLINK_ReadMemEx(0xE0041FD0, 0x0020 Bytes, ..., Flags = 0x02000004) -- CPU_ReadMem(32 bytes @ 0xE0041FD0) - Data: 04 00 00 00 00 00 00 00 00 00 00 00 00 00 00 00 ...  returns 0x20 (0001ms, 18017ms total)
T0388 1130:965 JLINK_GetDebugInfo(0x102 = JLINKARM_DEBUG_INFO_MTB_ADDR_INDEX) -- Value=0x00000000  returns 0x00 (0000ms, 18017ms total)
T0388 1130:965 JLINK_GetDebugInfo(0x103 = JLINKARM_DEBUG_INFO_TPIU_ADDR_INDEX) -- Value=0xE0040000  returns 0x00 (0000ms, 18017ms total)
T0388 1130:965 JLINK_GetDebugInfo(0x104 = JLINKARM_DEBUG_INFO_ITM_ADDR_INDEX) -- Value=0xE0000000  returns 0x00 (0000ms, 18017ms total)
T0388 1130:965 JLINK_GetDebugInfo(0x105 = JLINKARM_DEBUG_INFO_DWT_ADDR_INDEX) -- Value=0xE0001000  returns 0x00 (0000ms, 18017ms total)
T0388 1130:965 JLINK_GetDebugInfo(0x106 = JLINKARM_DEBUG_INFO_FPB_ADDR_INDEX) -- Value=0xE0002000  returns 0x00 (0000ms, 18017ms total)
T0388 1130:965 JLINK_GetDebugInfo(0x107 = JLINKARM_DEBUG_INFO_NVIC_ADDR_INDEX) -- Value=0xE000E000  returns 0x00 (0000ms, 18017ms total)
T0388 1130:965 JLINK_GetDebugInfo(0x10C = JLINKARM_DEBUG_INFO_DBG_ADDR_INDEX) -- Value=0xE000EDF0  returns 0x00 (0000ms, 18017ms total)
T0388 1130:965 JLINK_ReadMemU32(0xE000ED00, 0x0001 Items, ...) -- CPU_ReadMem(4 bytes @ 0xE000ED00) - Data: 31 C2 1F 41  returns 0x01 (0001ms, 18018ms total)
T0388 1130:966 JLINK_GetDebugInfo(0x10F = JLINKARM_DEBUG_INFO_HAS_CORTEX_M_SECURITY_EXT_INDEX) -- Value=0x00000000  returns 0x00 (0000ms, 18018ms total)
T0388 1130:966 JLINK_SetResetType(JLINKARM_CM3_RESET_TYPE_NORMAL)  returns JLINKARM_CM3_RESET_TYPE_NORMAL (0000ms, 18018ms total)
T0388 1130:966 JLINK_Reset() -- CPU is running -- CPU_WriteMem(4 bytes @ 0xE000EDF0) -- CPU is running -- CPU_WriteMem(4 bytes @ 0xE000EDFC)Reset: Halt core after reset via DEMCR.VC_CORERESET. >0x35 TIF>Reset: Reset device via AIRCR.SYSRESETREQ. -- CPU is running -- CPU_WriteMem(4 bytes @ 0xE000ED0C) >0x0D TIF> >0x28 TIF> -- CPU_ReadMem(4 bytes @ 0xE000EDF0) -- CPU_ReadMem(4 bytes @ 0xE000EDF0) -- CPU is running -- CPU_WriteMem(4 bytes @ 0xE000EDF0) -- CPU is running -- CPU_WriteMem(4 bytes @ 0xE000EDFC)
 -- CPU_ReadMem(4 bytes @ 0xE000EDF0) -- CPU_WriteMem(4 bytes @ 0xE0002000) -- CPU_ReadMem(4 bytes @ 0xE000EDFC) -- CPU_ReadMem(4 bytes @ 0xE0001000) (0073ms, 18091ms total)
T0388 1131:039 JLINK_ReadReg(R15 (PC))  returns 0x08004D48 (0000ms, 18091ms total)
T0388 1131:039 JLINK_ReadReg(XPSR)  returns 0x01000000 (0000ms, 18091ms total)
T0388 1131:039 JLINK_Halt()  returns 0x00 (0000ms, 18091ms total)
T0388 1131:039 JLINK_ReadMemU32(0xE000EDF0, 0x0001 Items, ...) -- CPU_ReadMem(4 bytes @ 0xE000EDF0) - Data: 03 00 03 00  returns 0x01 (0001ms, 18092ms total)
T0388 1131:040 JLINK_WriteU32(0xE000EDF0, 0xA05F0003) -- CPU_WriteMem(4 bytes @ 0xE000EDF0)  returns 0x00 (0001ms, 18093ms total)
T0388 1131:041 JLINK_WriteU32(0xE000EDFC, 0x01000000) -- CPU_WriteMem(4 bytes @ 0xE000EDFC)  returns 0x00 (0001ms, 18094ms total)
T0388 1131:042 JLINK_GetHWStatus(...)  returns 0x00 (0001ms, 18095ms total)
T0388 1131:043 JLINK_GetNumBPUnits(Type = 0xFFFFFF00)  returns 0x06 (0000ms, 18095ms total)
T0388 1131:043 JLINK_GetNumBPUnits(Type = 0xF0)  returns 0x2000 (0000ms, 18095ms total)
T0388 1131:043 JLINK_GetNumWPUnits()  returns 0x04 (0000ms, 18095ms total)
T0388 1131:043 JLINK_GetSpeed()  returns 0x2EE0 (0000ms, 18095ms total)
T0388 1131:043 JLINK_ReadMemU32(0xE000E004, 0x0001 Items, ...) -- CPU_ReadMem(4 bytes @ 0xE000E004) - Data: 01 00 00 00  returns 0x01 (0001ms, 18096ms total)
T0388 1131:044 JLINK_ReadMemU32(0xE000E004, 0x0001 Items, ...) -- CPU_ReadMem(4 bytes @ 0xE000E004) - Data: 01 00 00 00  returns 0x01 (0001ms, 18097ms total)
T0388 1131:045 JLINK_WriteMemEx(0xE0001000, 0x001C Bytes, ..., Flags = 0x02000004) - Data: 01 00 00 00 00 00 00 00 00 00 00 00 00 00 00 00 ... -- CPU_WriteMem(28 bytes @ 0xE0001000)  returns 0x1C (0001ms, 18098ms total)
T0388 1131:046 JLINK_ReadReg(R15 (PC))  returns 0x08004D48 (0000ms, 18098ms total)
T0388 1131:046 JLINK_ReadReg(XPSR)  returns 0x01000000 (0000ms, 18098ms total)
T0388 1131:175 JLINK_SetResetType(JLINKARM_CM3_RESET_TYPE_NORMAL)  returns JLINKARM_CM3_RESET_TYPE_NORMAL (0001ms, 18099ms total)
T0388 1131:176 JLINK_Reset() -- CPU_WriteMem(4 bytes @ 0xE000EDF0) -- CPU_WriteMem(4 bytes @ 0xE000EDFC)Reset: Halt core after reset via DEMCR.VC_CORERESET. >0x35 TIF>Reset: Reset device via AIRCR.SYSRESETREQ. -- CPU_WriteMem(4 bytes @ 0xE000ED0C) >0x0D TIF> >0x28 TIF> -- CPU_ReadMem(4 bytes @ 0xE000EDF0) -- CPU_ReadMem(4 bytes @ 0xE000EDF0) -- CPU_WriteMem(4 bytes @ 0xE000EDF0) -- CPU_WriteMem(4 bytes @ 0xE000EDFC) -- CPU_ReadMem(4 bytes @ 0xE000EDF0) -- CPU_WriteMem(4 bytes @ 0xE0002000)
 -- CPU_ReadMem(4 bytes @ 0xE000EDFC) -- CPU_ReadMem(4 bytes @ 0xE0001000) (0073ms, 18172ms total)
T0388 1131:249 JLINK_ReadReg(R15 (PC))  returns 0x08004D48 (0000ms, 18172ms total)
T0388 1131:249 JLINK_ReadReg(XPSR)  returns 0x01000000 (0000ms, 18172ms total)
T0388 1131:250 JLINK_ReadMemEx(0x08004C48, 0x003C Bytes, ..., Flags = 0x02000000) -- CPU_ReadMem(128 bytes @ 0x08004C40) -- Updating C cache (128 bytes @ 0x08004C40) -- Read from C cache (60 bytes @ 0x08004C48) - Data: 0E 46 17 46 1D 46 4F F0 00 08 FF F7 17 FE 80 46 ...  returns 0x3C (0001ms, 18173ms total)
T0388 1131:251 JLINK_ReadMemEx(0x08004C84, 0x003C Bytes, ..., Flags = 0x02000000) -- Read from C cache (60 bytes @ 0x08004C84) - Data: 00 28 E8 D0 10 2F 02 D1 60 69 30 60 01 E0 60 6B ...  returns 0x3C (0000ms, 18173ms total)
T0388 1131:251 JLINK_ReadMemEx(0x08004CC0, 0x003C Bytes, ..., Flags = 0x02000000) -- CPU_ReadMem(64 bytes @ 0x08004CC0) -- Updating C cache (64 bytes @ 0x08004CC0) -- Read from C cache (60 bytes @ 0x08004CC0) - Data: D1 E9 00 03 40 EA 03 20 0B 89 40 EA 03 40 0B 7B ...  returns 0x3C (0001ms, 18174ms total)
T0388 1131:252 JLINK_ReadMemEx(0x08004CFC, 0x003C Bytes, ..., Flags = 0x02000000) -- CPU_ReadMem(64 bytes @ 0x08004D00) -- Updating C cache (64 bytes @ 0x08004D00) -- Read from C cache (60 bytes @ 0x08004CFC) - Data: D1 E9 00 03 40 EA 03 20 0B 89 40 EA 03 40 0B 7B ...  returns 0x3C (0001ms, 18175ms total)
T0388 1131:253 JLINK_ReadMemEx(0x08004D38, 0x003C Bytes, ..., Flags = 0x02000000) -- CPU_ReadMem(64 bytes @ 0x08004D40) -- Updating C cache (64 bytes @ 0x08004D40) -- Read from C cache (60 bytes @ 0x08004D38) - Data: 81 00 F7 FF 00 00 F0 CF 81 01 F0 FF C5 01 FE FF ...  returns 0x3C (0001ms, 18176ms total)
T0388 1132:692 JLINK_ReadReg(R0)  returns 0x000049DA (0001ms, 18177ms total)
T0388 1132:693 JLINK_ReadReg(R1)  returns 0x20000120 (0000ms, 18177ms total)
T0388 1132:693 JLINK_ReadReg(R2)  returns 0x20002350 (0000ms, 18177ms total)
T0388 1132:693 JLINK_ReadReg(R3)  returns 0xFFFFFFFF (0000ms, 18177ms total)
T0388 1132:693 JLINK_ReadReg(R4)  returns 0xDEADBEEF (0000ms, 18177ms total)
T0388 1132:693 JLINK_ReadReg(R5)  returns 0xDEADBEEF (0000ms, 18177ms total)
T0388 1132:693 JLINK_ReadReg(R6)  returns 0xDEADBEEF (0000ms, 18177ms total)
T0388 1132:693 JLINK_ReadReg(R7)  returns 0xDEADBEEF (0000ms, 18177ms total)
T0388 1132:693 JLINK_ReadReg(R8)  returns 0xDEADBEEF (0000ms, 18177ms total)
T0388 1132:693 JLINK_ReadReg(R9)  returns 0xDEADBEEF (0000ms, 18177ms total)
T0388 1132:693 JLINK_ReadReg(R10)  returns 0xDEADBEEF (0000ms, 18177ms total)
T0388 1132:693 JLINK_ReadReg(R11)  returns 0xDEADBEEF (0000ms, 18177ms total)
T0388 1132:693 JLINK_ReadReg(R12)  returns 0x00000000 (0000ms, 18177ms total)
T0388 1132:693 JLINK_ReadReg(R13 (SP))  returns 0x20002350 (0000ms, 18177ms total)
T0388 1132:693 JLINK_ReadReg(R14)  returns 0xFFFFFFFF (0000ms, 18177ms total)
T0388 1132:693 JLINK_ReadReg(R15 (PC))  returns 0x08004D48 (0000ms, 18177ms total)
T0388 1132:693 JLINK_ReadReg(XPSR)  returns 0x01000000 (0001ms, 18178ms total)
T0388 1132:694 JLINK_ReadReg(MSP)  returns 0x20002350 (0000ms, 18178ms total)
T0388 1132:694 JLINK_ReadReg(PSP)  returns 0x200005B0 (0000ms, 18178ms total)
T0388 1132:694 JLINK_ReadReg(CFBP)  returns 0x00000000 (0000ms, 18178ms total)
T0388 1132:694 JLINK_ReadMemU32(0xE0001004, 0x0001 Items, ...) - Data: 00 00 00 00  returns 0x01 (0000ms, 18178ms total)
T0108 1136:710 JLINK_ReadMemEx(0x08004D48, 0x0002 Bytes, ..., Flags = 0x02000000) -- Read from C cache (2 bytes @ 0x08004D48) - Data: 06 48  returns 0x02 (0000ms, 18178ms total)
T0108 1136:710 JLINK_SetBPEx(Addr = 0x080013D6, Type = 0xFFFFFFF2)  returns 0x00000001 (0000ms, 18178ms total)
T0108 1136:710 JLINK_Go() -- CPU_WriteMem(4 bytes @ 0xE0002000) -- CPU_ReadMem(4 bytes @ 0xE0001000) -- CPU_WriteMem(4 bytes @ 0xE0002008) -- CPU_WriteMem(4 bytes @ 0xE000200C) -- CPU_WriteMem(4 bytes @ 0xE0002010) -- CPU_WriteMem(4 bytes @ 0xE0002014) -- CPU_WriteMem(4 bytes @ 0xE0002018) -- CPU_WriteMem(4 bytes @ 0xE000201C) -- CPU_WriteMem(4 bytes @ 0xE0001004) (0006ms, 18184ms total)
T0108 1136:816 JLINK_IsHalted()  returns TRUE (0003ms, 18187ms total)
T0108 1136:819 JLINK_Halt()  returns 0x00 (0000ms, 18184ms total)
T0108 1136:819 JLINK_IsHalted()  returns TRUE (0000ms, 18184ms total)
T0108 1136:819 JLINK_IsHalted()  returns TRUE (0001ms, 18185ms total)
T0108 1136:820 JLINK_IsHalted()  returns TRUE (0000ms, 18184ms total)
T0108 1136:820 JLINK_ReadReg(R15 (PC))  returns 0x080013D6 (0000ms, 18184ms total)
T0108 1136:820 JLINK_ReadReg(XPSR)  returns 0x81000000 (0000ms, 18184ms total)
T0108 1136:820 JLINK_ClrBPEx(BPHandle = 0x00000001)  returns 0x00 (0000ms, 18184ms total)
T0108 1136:820 JLINK_ReadMemU32(0xE000ED30, 0x0001 Items, ...) -- CPU_ReadMem(4 bytes @ 0xE000ED30) - Data: 02 00 00 00  returns 0x01 (0001ms, 18185ms total)
T0108 1136:821 JLINK_ReadMemU32(0xE0001028, 0x0001 Items, ...) -- CPU_ReadMem(4 bytes @ 0xE0001028) - Data: 00 00 00 00  returns 0x01 (0001ms, 18186ms total)
T0108 1136:822 JLINK_ReadMemU32(0xE0001038, 0x0001 Items, ...) -- CPU_ReadMem(4 bytes @ 0xE0001038) - Data: 00 02 00 00  returns 0x01 (0001ms, 18187ms total)
T0108 1136:823 JLINK_ReadMemU32(0xE0001048, 0x0001 Items, ...) -- CPU_ReadMem(4 bytes @ 0xE0001048) - Data: 00 00 00 00  returns 0x01 (0001ms, 18188ms total)
T0108 1136:824 JLINK_ReadMemU32(0xE0001058, 0x0001 Items, ...) -- CPU_ReadMem(4 bytes @ 0xE0001058) - Data: 00 00 00 00  returns 0x01 (0001ms, 18189ms total)
T0108 1136:826 JLINK_ReadReg(R0)  returns 0x00000000 (0000ms, 18189ms total)
T0108 1136:826 JLINK_ReadReg(R1)  returns 0x00000000 (0000ms, 18189ms total)
T0108 1136:826 JLINK_ReadReg(R2)  returns 0x00000064 (0000ms, 18189ms total)
T0108 1136:826 JLINK_ReadReg(R3)  returns 0x00000064 (0000ms, 18189ms total)
T0108 1136:826 JLINK_ReadReg(R4)  returns 0x00000000 (0000ms, 18189ms total)
T0108 1136:826 JLINK_ReadReg(R5)  returns 0x00000000 (0000ms, 18189ms total)
T0108 1136:826 JLINK_ReadReg(R6)  returns 0x00000000 (0000ms, 18189ms total)
T0108 1136:826 JLINK_ReadReg(R7)  returns 0x00000000 (0000ms, 18189ms total)
T0108 1136:826 JLINK_ReadReg(R8)  returns 0x00000064 (0000ms, 18189ms total)
T0108 1136:826 JLINK_ReadReg(R9)  returns 0x00000064 (0000ms, 18189ms total)
T0108 1136:826 JLINK_ReadReg(R10)  returns 0xDEADBEEF (0000ms, 18189ms total)
T0108 1136:826 JLINK_ReadReg(R11)  returns 0xDEADBEEF (0001ms, 18190ms total)
T0108 1136:827 JLINK_ReadReg(R12)  returns 0x00000000 (0000ms, 18190ms total)
T0108 1136:827 JLINK_ReadReg(R13 (SP))  returns 0x20003B30 (0000ms, 18190ms total)
T0108 1136:827 JLINK_ReadReg(R14)  returns 0x08001595 (0000ms, 18190ms total)
T0108 1136:827 JLINK_ReadReg(R15 (PC))  returns 0x080013D6 (0000ms, 18190ms total)
T0108 1136:827 JLINK_ReadReg(XPSR)  returns 0x81000000 (0000ms, 18190ms total)
T0108 1136:827 JLINK_ReadReg(MSP)  returns 0x20002330 (0000ms, 18190ms total)
T0108 1136:827 JLINK_ReadReg(PSP)  returns 0x20003B30 (0000ms, 18190ms total)
T0108 1136:827 JLINK_ReadReg(CFBP)  returns 0x02000000 (0000ms, 18190ms total)
T0388 1136:828 JLINK_ReadMemEx(0x20003B4C, 0x0004 Bytes, ..., Flags = 0x02000000) -- CPU_ReadMem(64 bytes @ 0x20003B40) -- Updating C cache (64 bytes @ 0x20003B40) -- Read from C cache (4 bytes @ 0x20003B4C) - Data: 95 15 00 08  returns 0x04 (0001ms, 18191ms total)
T0388 1136:830 JLINK_ReadMemEx(0x20003B30, 0x0004 Bytes, ..., Flags = 0x02000000) -- CPU_ReadMem(64 bytes @ 0x20003B00) -- Updating C cache (64 bytes @ 0x20003B00) -- Read from C cache (4 bytes @ 0x20003B30) - Data: EF BE AD DE  returns 0x04 (0001ms, 18192ms total)
T0388 1136:831 JLINK_ReadMemEx(0x20003B34, 0x0004 Bytes, ..., Flags = 0x02000000) -- Read from C cache (4 bytes @ 0x20003B34) - Data: EF BE AD DE  returns 0x04 (0001ms, 18193ms total)
T0388 1136:832 JLINK_ReadMemEx(0x20003B38, 0x0004 Bytes, ..., Flags = 0x02000000) -- Read from C cache (4 bytes @ 0x20003B38) - Data: EF BE AD DE  returns 0x04 (0000ms, 18193ms total)
T0388 1136:832 JLINK_ReadMemEx(0x20003B3C, 0x0004 Bytes, ..., Flags = 0x02000000) -- Read from C cache (4 bytes @ 0x20003B3C) - Data: EF BE AD DE  returns 0x04 (0000ms, 18193ms total)
T0388 1136:832 JLINK_ReadMemEx(0x20003B40, 0x0004 Bytes, ..., Flags = 0x02000000) -- Read from C cache (4 bytes @ 0x20003B40) - Data: EF BE AD DE  returns 0x04 (0000ms, 18193ms total)
T0388 1136:832 JLINK_ReadMemEx(0x20003B44, 0x0004 Bytes, ..., Flags = 0x02000000) -- Read from C cache (4 bytes @ 0x20003B44) - Data: EF BE AD DE  returns 0x04 (0000ms, 18193ms total)
T0388 1136:832 JLINK_ReadMemEx(0x20003B48, 0x0004 Bytes, ..., Flags = 0x02000000) -- Read from C cache (4 bytes @ 0x20003B48) - Data: EF BE AD DE  returns 0x04 (0000ms, 18193ms total)
T0388 1136:844 JLINK_ReadMemU32(0xE0001004, 0x0001 Items, ...) -- CPU_ReadMem(4 bytes @ 0xE0001004) - Data: BE 5F 35 00  returns 0x01 (0001ms, 18194ms total)
T0388 1136:850 JLINK_ReadMemEx(0x080013D2, 0x0002 Bytes, ..., Flags = 0x02000000) -- CPU_ReadMem(64 bytes @ 0x080013C0) -- Updating C cache (64 bytes @ 0x080013C0) -- Read from C cache (2 bytes @ 0x080013D2) - Data: 3D 46  returns 0x02 (0001ms, 18195ms total)
T0388 1136:851 JLINK_ReadMemEx(0x080013D4, 0x002C Bytes, ..., Flags = 0x02000000) -- Read from C cache (44 bytes @ 0x080013D4) - Data: 06 E0 BD F8 20 20 A9 B2 A0 B2 FF F7 FB FE 6D 1C ...  returns 0x2C (0000ms, 18195ms total)
T0388 1136:851 JLINK_ReadMemEx(0x08001400, 0x0010 Bytes, ..., Flags = 0x02000000) -- CPU_ReadMem(64 bytes @ 0x08001400) -- Updating C cache (64 bytes @ 0x08001400) -- Read from C cache (16 bytes @ 0x08001400) - Data: 70 47 70 B5 05 46 0C 46 28 46 FF F7 F2 FF 20 46  returns 0x10 (0002ms, 18197ms total)
T0108 1143:311 JLINK_ReadMemEx(0x080013D6, 0x0002 Bytes, ..., Flags = 0x02000000) -- Read from C cache (2 bytes @ 0x080013D6) - Data: BD F8  returns 0x02 (0000ms, 18197ms total)
T0108 1143:311 JLINK_Step() -- Read from C cache (2 bytes @ 0x080013D6) -- CPU_ReadMem(4 bytes @ 0xE000ED18) -- CPU_WriteMem(4 bytes @ 0xE000ED18) -- CPU_ReadMem(4 bytes @ 0xE000ED18) -- CPU_WriteMem(4 bytes @ 0xE000ED18) -- Read from C cache (2 bytes @ 0x080013D8) -- Not simulated -- CPU_WriteMem(4 bytes @ 0xE0002008)  returns 0x00 (0011ms, 18208ms total)
T0108 1143:322 JLINK_ReadReg(R15 (PC))  returns 0x080013DA (0000ms, 18208ms total)
T0108 1143:322 JLINK_ReadReg(XPSR)  returns 0x81000000 (0000ms, 18208ms total)
T0108 1143:322 JLINK_SetBPEx(Addr = 0x080013D6, Type = 0xFFFFFFF2)  returns 0x00000002 (0000ms, 18208ms total)
T0108 1143:322 JLINK_Go() -- CPU_WriteMem(4 bytes @ 0xE0002000) -- CPU_ReadMem(4 bytes @ 0xE0001000) -- CPU_WriteMem(4 bytes @ 0xE0002008) (0004ms, 18212ms total)
T0108 1143:427 JLINK_IsHalted()  returns TRUE (0003ms, 18216ms total)
T0108 1143:430 JLINK_Halt()  returns 0x00 (0000ms, 18213ms total)
T0108 1143:430 JLINK_IsHalted()  returns TRUE (0000ms, 18213ms total)
T0108 1143:430 JLINK_IsHalted()  returns TRUE (0000ms, 18213ms total)
T0108 1143:430 JLINK_IsHalted()  returns TRUE (0000ms, 18213ms total)
T0108 1143:430 JLINK_ReadReg(R15 (PC))  returns 0x080013D6 (0000ms, 18213ms total)
T0108 1143:430 JLINK_ReadReg(XPSR)  returns 0x81000000 (0001ms, 18214ms total)
T0108 1143:431 JLINK_ClrBPEx(BPHandle = 0x00000002)  returns 0x00 (0000ms, 18214ms total)
T0108 1143:431 JLINK_ReadMemU32(0xE000ED30, 0x0001 Items, ...) -- CPU_ReadMem(4 bytes @ 0xE000ED30) - Data: 02 00 00 00  returns 0x01 (0001ms, 18215ms total)
T0108 1143:432 JLINK_ReadMemU32(0xE0001028, 0x0001 Items, ...) -- CPU_ReadMem(4 bytes @ 0xE0001028) - Data: 00 00 00 00  returns 0x01 (0001ms, 18216ms total)
T0108 1143:433 JLINK_ReadMemU32(0xE0001038, 0x0001 Items, ...) -- CPU_ReadMem(4 bytes @ 0xE0001038) - Data: 00 02 00 00  returns 0x01 (0001ms, 18217ms total)
T0108 1143:434 JLINK_ReadMemU32(0xE0001048, 0x0001 Items, ...) -- CPU_ReadMem(4 bytes @ 0xE0001048) - Data: 00 00 00 00  returns 0x01 (0001ms, 18218ms total)
T0108 1143:435 JLINK_ReadMemU32(0xE0001058, 0x0001 Items, ...) -- CPU_ReadMem(4 bytes @ 0xE0001058) - Data: 00 00 00 00  returns 0x01 (0001ms, 18219ms total)
T0108 1143:436 JLINK_ReadReg(R0)  returns 0x00000000 (0000ms, 18219ms total)
T0108 1143:436 JLINK_ReadReg(R1)  returns 0x6C000000 (0000ms, 18219ms total)
T0108 1143:436 JLINK_ReadReg(R2)  returns 0x0000FFFF (0000ms, 18219ms total)
T0108 1143:436 JLINK_ReadReg(R3)  returns 0x00000064 (0000ms, 18219ms total)
T0108 1143:436 JLINK_ReadReg(R4)  returns 0x00000000 (0001ms, 18220ms total)
T0108 1143:437 JLINK_ReadReg(R5)  returns 0x00000001 (0000ms, 18220ms total)
T0108 1143:437 JLINK_ReadReg(R6)  returns 0x00000000 (0000ms, 18220ms total)
T0108 1143:437 JLINK_ReadReg(R7)  returns 0x00000000 (0000ms, 18220ms total)
T0108 1143:437 JLINK_ReadReg(R8)  returns 0x00000064 (0000ms, 18220ms total)
T0108 1143:437 JLINK_ReadReg(R9)  returns 0x00000064 (0000ms, 18220ms total)
T0108 1143:437 JLINK_ReadReg(R10)  returns 0xDEADBEEF (0000ms, 18220ms total)
T0108 1143:437 JLINK_ReadReg(R11)  returns 0xDEADBEEF (0000ms, 18220ms total)
T0108 1143:437 JLINK_ReadReg(R12)  returns 0x00000000 (0000ms, 18220ms total)
T0108 1143:437 JLINK_ReadReg(R13 (SP))  returns 0x20003B30 (0000ms, 18220ms total)
T0108 1143:437 JLINK_ReadReg(R14)  returns 0x080011F5 (0000ms, 18220ms total)
T0108 1143:437 JLINK_ReadReg(R15 (PC))  returns 0x080013D6 (0000ms, 18220ms total)
T0108 1143:437 JLINK_ReadReg(XPSR)  returns 0x81000000 (0000ms, 18220ms total)
T0108 1143:437 JLINK_ReadReg(MSP)  returns 0x20002330 (0000ms, 18220ms total)
T0108 1143:437 JLINK_ReadReg(PSP)  returns 0x20003B30 (0000ms, 18220ms total)
T0108 1143:437 JLINK_ReadReg(CFBP)  returns 0x02000000 (0000ms, 18220ms total)
T0388 1143:438 JLINK_ReadMemEx(0x20003B4C, 0x0004 Bytes, ..., Flags = 0x02000000) -- CPU_ReadMem(64 bytes @ 0x20003B40) -- Updating C cache (64 bytes @ 0x20003B40) -- Read from C cache (4 bytes @ 0x20003B4C) - Data: 95 15 00 08  returns 0x04 (0002ms, 18222ms total)
T0388 1143:440 JLINK_ReadMemEx(0x20003B30, 0x0004 Bytes, ..., Flags = 0x02000000) -- CPU_ReadMem(64 bytes @ 0x20003B00) -- Updating C cache (64 bytes @ 0x20003B00) -- Read from C cache (4 bytes @ 0x20003B30) - Data: EF BE AD DE  returns 0x04 (0001ms, 18223ms total)
T0388 1143:441 JLINK_ReadMemEx(0x20003B34, 0x0004 Bytes, ..., Flags = 0x02000000) -- Read from C cache (4 bytes @ 0x20003B34) - Data: EF BE AD DE  returns 0x04 (0000ms, 18223ms total)
T0388 1143:441 JLINK_ReadMemEx(0x20003B38, 0x0004 Bytes, ..., Flags = 0x02000000) -- Read from C cache (4 bytes @ 0x20003B38) - Data: EF BE AD DE  returns 0x04 (0000ms, 18223ms total)
T0388 1143:441 JLINK_ReadMemEx(0x20003B3C, 0x0004 Bytes, ..., Flags = 0x02000000) -- Read from C cache (4 bytes @ 0x20003B3C) - Data: EF BE AD DE  returns 0x04 (0000ms, 18223ms total)
T0388 1143:441 JLINK_ReadMemEx(0x20003B40, 0x0004 Bytes, ..., Flags = 0x02000000) -- Read from C cache (4 bytes @ 0x20003B40) - Data: EF BE AD DE  returns 0x04 (0000ms, 18223ms total)
T0388 1143:441 JLINK_ReadMemEx(0x20003B44, 0x0004 Bytes, ..., Flags = 0x02000000) -- Read from C cache (4 bytes @ 0x20003B44) - Data: EF BE AD DE  returns 0x04 (0000ms, 18223ms total)
T0388 1143:441 JLINK_ReadMemEx(0x20003B48, 0x0004 Bytes, ..., Flags = 0x02000000) -- Read from C cache (4 bytes @ 0x20003B48) - Data: EF BE AD DE  returns 0x04 (0000ms, 18223ms total)
T0388 1143:446 JLINK_ReadMemU32(0xE0001004, 0x0001 Items, ...) -- CPU_ReadMem(4 bytes @ 0xE0001004) - Data: 83 60 35 00  returns 0x01 (0002ms, 18225ms total)
T0108 1143:958 JLINK_ReadMemEx(0x080013D6, 0x0002 Bytes, ..., Flags = 0x02000000) -- CPU_ReadMem(64 bytes @ 0x080013C0) -- Updating C cache (64 bytes @ 0x080013C0) -- Read from C cache (2 bytes @ 0x080013D6) - Data: BD F8  returns 0x02 (0002ms, 18227ms total)
T0108 1143:960 JLINK_Step() -- Read from C cache (2 bytes @ 0x080013D6) -- Read from C cache (2 bytes @ 0x080013D8) -- Not simulated -- CPU_WriteMem(4 bytes @ 0xE0002008)  returns 0x00 (0006ms, 18233ms total)
T0108 1143:966 JLINK_ReadReg(R15 (PC))  returns 0x080013DA (0000ms, 18233ms total)
T0108 1143:966 JLINK_ReadReg(XPSR)  returns 0x81000000 (0000ms, 18233ms total)
T0108 1143:966 JLINK_SetBPEx(Addr = 0x080013D6, Type = 0xFFFFFFF2)  returns 0x00000003 (0000ms, 18233ms total)
T0108 1143:966 JLINK_Go() -- CPU_WriteMem(4 bytes @ 0xE0002000) -- CPU_ReadMem(4 bytes @ 0xE0001000) -- CPU_WriteMem(4 bytes @ 0xE0002008) (0004ms, 18237ms total)
T0108 1144:070 JLINK_IsHalted()  returns TRUE (0003ms, 18240ms total)
T0108 1144:073 JLINK_Halt()  returns 0x00 (0000ms, 18237ms total)
T0108 1144:073 JLINK_IsHalted()  returns TRUE (0000ms, 18237ms total)
T0108 1144:074 JLINK_IsHalted()  returns TRUE (0000ms, 18237ms total)
T0108 1144:074 JLINK_IsHalted()  returns TRUE (0000ms, 18237ms total)
T0108 1144:074 JLINK_ReadReg(R15 (PC))  returns 0x080013D6 (0000ms, 18237ms total)
T0108 1144:074 JLINK_ReadReg(XPSR)  returns 0x81000000 (0000ms, 18237ms total)
T0108 1144:074 JLINK_ClrBPEx(BPHandle = 0x00000003)  returns 0x00 (0000ms, 18237ms total)
T0108 1144:074 JLINK_ReadMemU32(0xE000ED30, 0x0001 Items, ...) -- CPU_ReadMem(4 bytes @ 0xE000ED30) - Data: 02 00 00 00  returns 0x01 (0002ms, 18239ms total)
T0108 1144:076 JLINK_ReadMemU32(0xE0001028, 0x0001 Items, ...) -- CPU_ReadMem(4 bytes @ 0xE0001028) - Data: 00 00 00 00  returns 0x01 (0001ms, 18240ms total)
T0108 1144:077 JLINK_ReadMemU32(0xE0001038, 0x0001 Items, ...) -- CPU_ReadMem(4 bytes @ 0xE0001038) - Data: 00 02 00 00  returns 0x01 (0001ms, 18241ms total)
T0108 1144:078 JLINK_ReadMemU32(0xE0001048, 0x0001 Items, ...) -- CPU_ReadMem(4 bytes @ 0xE0001048) - Data: 00 00 00 00  returns 0x01 (0001ms, 18242ms total)
T0108 1144:079 JLINK_ReadMemU32(0xE0001058, 0x0001 Items, ...) -- CPU_ReadMem(4 bytes @ 0xE0001058) - Data: 00 00 00 00  returns 0x01 (0001ms, 18243ms total)
T0108 1144:080 JLINK_ReadReg(R0)  returns 0x00000000 (0000ms, 18243ms total)
T0108 1144:080 JLINK_ReadReg(R1)  returns 0x6C000000 (0000ms, 18243ms total)
T0108 1144:080 JLINK_ReadReg(R2)  returns 0x0000FFFF (0000ms, 18243ms total)
T0108 1144:080 JLINK_ReadReg(R3)  returns 0x00000064 (0000ms, 18243ms total)
T0108 1144:080 JLINK_ReadReg(R4)  returns 0x00000000 (0000ms, 18243ms total)
T0108 1144:080 JLINK_ReadReg(R5)  returns 0x00000002 (0000ms, 18243ms total)
T0108 1144:080 JLINK_ReadReg(R6)  returns 0x00000000 (0000ms, 18243ms total)
T0108 1144:080 JLINK_ReadReg(R7)  returns 0x00000000 (0000ms, 18243ms total)
T0108 1144:080 JLINK_ReadReg(R8)  returns 0x00000064 (0001ms, 18244ms total)
T0108 1144:081 JLINK_ReadReg(R9)  returns 0x00000064 (0000ms, 18244ms total)
T0108 1144:081 JLINK_ReadReg(R10)  returns 0xDEADBEEF (0000ms, 18244ms total)
T0108 1144:081 JLINK_ReadReg(R11)  returns 0xDEADBEEF (0000ms, 18244ms total)
T0108 1144:081 JLINK_ReadReg(R12)  returns 0x00000000 (0000ms, 18244ms total)
T0108 1144:081 JLINK_ReadReg(R13 (SP))  returns 0x20003B30 (0000ms, 18244ms total)
T0108 1144:081 JLINK_ReadReg(R14)  returns 0x080011F5 (0000ms, 18244ms total)
T0108 1144:081 JLINK_ReadReg(R15 (PC))  returns 0x080013D6 (0000ms, 18244ms total)
T0108 1144:081 JLINK_ReadReg(XPSR)  returns 0x81000000 (0000ms, 18244ms total)
T0108 1144:081 JLINK_ReadReg(MSP)  returns 0x20002330 (0000ms, 18244ms total)
T0108 1144:081 JLINK_ReadReg(PSP)  returns 0x20003B30 (0000ms, 18244ms total)
T0108 1144:081 JLINK_ReadReg(CFBP)  returns 0x02000000 (0000ms, 18244ms total)
T0388 1144:083 JLINK_ReadMemEx(0x20003B4C, 0x0004 Bytes, ..., Flags = 0x02000000) -- CPU_ReadMem(64 bytes @ 0x20003B40) -- Updating C cache (64 bytes @ 0x20003B40) -- Read from C cache (4 bytes @ 0x20003B4C) - Data: 95 15 00 08  returns 0x04 (0002ms, 18246ms total)
T0388 1144:085 JLINK_ReadMemEx(0x20003B30, 0x0004 Bytes, ..., Flags = 0x02000000) -- CPU_ReadMem(64 bytes @ 0x20003B00) -- Updating C cache (64 bytes @ 0x20003B00) -- Read from C cache (4 bytes @ 0x20003B30) - Data: EF BE AD DE  returns 0x04 (0001ms, 18247ms total)
T0388 1144:086 JLINK_ReadMemEx(0x20003B34, 0x0004 Bytes, ..., Flags = 0x02000000) -- Read from C cache (4 bytes @ 0x20003B34) - Data: EF BE AD DE  returns 0x04 (0000ms, 18247ms total)
T0388 1144:086 JLINK_ReadMemEx(0x20003B38, 0x0004 Bytes, ..., Flags = 0x02000000) -- Read from C cache (4 bytes @ 0x20003B38) - Data: EF BE AD DE  returns 0x04 (0000ms, 18247ms total)
T0388 1144:086 JLINK_ReadMemEx(0x20003B3C, 0x0004 Bytes, ..., Flags = 0x02000000) -- Read from C cache (4 bytes @ 0x20003B3C) - Data: EF BE AD DE  returns 0x04 (0000ms, 18247ms total)
T0388 1144:086 JLINK_ReadMemEx(0x20003B40, 0x0004 Bytes, ..., Flags = 0x02000000) -- Read from C cache (4 bytes @ 0x20003B40) - Data: EF BE AD DE  returns 0x04 (0000ms, 18247ms total)
T0388 1144:086 JLINK_ReadMemEx(0x20003B44, 0x0004 Bytes, ..., Flags = 0x02000000) -- Read from C cache (4 bytes @ 0x20003B44) - Data: EF BE AD DE  returns 0x04 (0000ms, 18247ms total)
T0388 1144:086 JLINK_ReadMemEx(0x20003B48, 0x0004 Bytes, ..., Flags = 0x02000000) -- Read from C cache (4 bytes @ 0x20003B48) - Data: EF BE AD DE  returns 0x04 (0001ms, 18248ms total)
T0388 1144:095 JLINK_ReadMemU32(0xE0001004, 0x0001 Items, ...) -- CPU_ReadMem(4 bytes @ 0xE0001004) - Data: 48 61 35 00  returns 0x01 (0002ms, 18250ms total)
T0388 1145:344 JLINK_ReadMemEx(0x20003B50, 0x0002 Bytes, ..., Flags = 0x02000000) -- Read from C cache (2 bytes @ 0x20003B50) - Data: FF FF  returns 0x02 (0000ms, 18250ms total)
T0108 1154:701 JLINK_ReadMemEx(0x080013D6, 0x0002 Bytes, ..., Flags = 0x02000000) -- CPU_ReadMem(64 bytes @ 0x080013C0) -- Updating C cache (64 bytes @ 0x080013C0) -- Read from C cache (2 bytes @ 0x080013D6) - Data: BD F8  returns 0x02 (0002ms, 18252ms total)
T0108 1154:703 JLINK_Step() -- Read from C cache (2 bytes @ 0x080013D6) -- Read from C cache (2 bytes @ 0x080013D8) -- Not simulated -- CPU_WriteMem(4 bytes @ 0xE0002008)  returns 0x00 (0006ms, 18258ms total)
T0108 1154:709 JLINK_ReadReg(R15 (PC))  returns 0x080013DA (0000ms, 18258ms total)
T0108 1154:709 JLINK_ReadReg(XPSR)  returns 0x81000000 (0000ms, 18258ms total)
T0108 1154:709 JLINK_SetBPEx(Addr = 0x080013D6, Type = 0xFFFFFFF2)  returns 0x00000004 (0000ms, 18258ms total)
T0108 1154:709 JLINK_Go() -- CPU_WriteMem(4 bytes @ 0xE0002000) -- CPU_ReadMem(4 bytes @ 0xE0001000) -- CPU_WriteMem(4 bytes @ 0xE0002008) (0004ms, 18262ms total)
T0108 1154:813 JLINK_IsHalted()  returns TRUE (0003ms, 18265ms total)
T0108 1154:817 JLINK_Halt()  returns 0x00 (0000ms, 18262ms total)
T0108 1154:817 JLINK_IsHalted()  returns TRUE (0000ms, 18262ms total)
T0108 1154:817 JLINK_IsHalted()  returns TRUE (0000ms, 18262ms total)
T0108 1154:817 JLINK_IsHalted()  returns TRUE (0000ms, 18262ms total)
T0108 1154:817 JLINK_ReadReg(R15 (PC))  returns 0x080013D6 (0000ms, 18262ms total)
T0108 1154:817 JLINK_ReadReg(XPSR)  returns 0x81000000 (0000ms, 18262ms total)
T0108 1154:817 JLINK_ClrBPEx(BPHandle = 0x00000004)  returns 0x00 (0000ms, 18262ms total)
T0108 1154:817 JLINK_ReadMemU32(0xE000ED30, 0x0001 Items, ...) -- CPU_ReadMem(4 bytes @ 0xE000ED30) - Data: 02 00 00 00  returns 0x01 (0002ms, 18264ms total)
T0108 1154:819 JLINK_ReadMemU32(0xE0001028, 0x0001 Items, ...) -- CPU_ReadMem(4 bytes @ 0xE0001028) - Data: 00 00 00 00  returns 0x01 (0001ms, 18265ms total)
T0108 1154:820 JLINK_ReadMemU32(0xE0001038, 0x0001 Items, ...) -- CPU_ReadMem(4 bytes @ 0xE0001038) - Data: 00 02 00 00  returns 0x01 (0001ms, 18266ms total)
T0108 1154:821 JLINK_ReadMemU32(0xE0001048, 0x0001 Items, ...) -- CPU_ReadMem(4 bytes @ 0xE0001048) - Data: 00 00 00 00  returns 0x01 (0001ms, 18267ms total)
T0108 1154:822 JLINK_ReadMemU32(0xE0001058, 0x0001 Items, ...) -- CPU_ReadMem(4 bytes @ 0xE0001058) - Data: 00 00 00 00  returns 0x01 (0001ms, 18268ms total)
T0108 1154:823 JLINK_ReadReg(R0)  returns 0x00000000 (0000ms, 18268ms total)
T0108 1154:823 JLINK_ReadReg(R1)  returns 0x6C000000 (0000ms, 18268ms total)
T0108 1154:823 JLINK_ReadReg(R2)  returns 0x0000FFFF (0000ms, 18268ms total)
T0108 1154:823 JLINK_ReadReg(R3)  returns 0x00000064 (0000ms, 18268ms total)
T0108 1154:823 JLINK_ReadReg(R4)  returns 0x00000000 (0000ms, 18268ms total)
T0108 1154:823 JLINK_ReadReg(R5)  returns 0x00000003 (0000ms, 18268ms total)
T0108 1154:823 JLINK_ReadReg(R6)  returns 0x00000000 (0001ms, 18269ms total)
T0108 1154:824 JLINK_ReadReg(R7)  returns 0x00000000 (0000ms, 18269ms total)
T0108 1154:824 JLINK_ReadReg(R8)  returns 0x00000064 (0000ms, 18269ms total)
T0108 1154:824 JLINK_ReadReg(R9)  returns 0x00000064 (0000ms, 18269ms total)
T0108 1154:824 JLINK_ReadReg(R10)  returns 0xDEADBEEF (0000ms, 18269ms total)
T0108 1154:824 JLINK_ReadReg(R11)  returns 0xDEADBEEF (0000ms, 18269ms total)
T0108 1154:824 JLINK_ReadReg(R12)  returns 0x00000000 (0000ms, 18269ms total)
T0108 1154:824 JLINK_ReadReg(R13 (SP))  returns 0x20003B30 (0000ms, 18269ms total)
T0108 1154:824 JLINK_ReadReg(R14)  returns 0x080011F5 (0000ms, 18269ms total)
T0108 1154:824 JLINK_ReadReg(R15 (PC))  returns 0x080013D6 (0000ms, 18269ms total)
T0108 1154:824 JLINK_ReadReg(XPSR)  returns 0x81000000 (0000ms, 18269ms total)
T0108 1154:824 JLINK_ReadReg(MSP)  returns 0x20002330 (0000ms, 18269ms total)
T0108 1154:824 JLINK_ReadReg(PSP)  returns 0x20003B30 (0000ms, 18269ms total)
T0108 1154:824 JLINK_ReadReg(CFBP)  returns 0x02000000 (0000ms, 18269ms total)
T0388 1154:826 JLINK_ReadMemEx(0x20003B4C, 0x0004 Bytes, ..., Flags = 0x02000000) -- CPU_ReadMem(64 bytes @ 0x20003B40) -- Updating C cache (64 bytes @ 0x20003B40) -- Read from C cache (4 bytes @ 0x20003B4C) - Data: 95 15 00 08  returns 0x04 (0002ms, 18272ms total)
T0388 1154:828 JLINK_ReadMemEx(0x20003B30, 0x0004 Bytes, ..., Flags = 0x02000000) -- CPU_ReadMem(64 bytes @ 0x20003B00) -- Updating C cache (64 bytes @ 0x20003B00) -- Read from C cache (4 bytes @ 0x20003B30) - Data: EF BE AD DE  returns 0x04 (0001ms, 18273ms total)
T0388 1154:829 JLINK_ReadMemEx(0x20003B34, 0x0004 Bytes, ..., Flags = 0x02000000) -- Read from C cache (4 bytes @ 0x20003B34) - Data: EF BE AD DE  returns 0x04 (0000ms, 18273ms total)
T0388 1154:829 JLINK_ReadMemEx(0x20003B38, 0x0004 Bytes, ..., Flags = 0x02000000) -- Read from C cache (4 bytes @ 0x20003B38) - Data: EF BE AD DE  returns 0x04 (0000ms, 18273ms total)
T0388 1154:829 JLINK_ReadMemEx(0x20003B3C, 0x0004 Bytes, ..., Flags = 0x02000000) -- Read from C cache (4 bytes @ 0x20003B3C) - Data: EF BE AD DE  returns 0x04 (0000ms, 18273ms total)
T0388 1154:829 JLINK_ReadMemEx(0x20003B40, 0x0004 Bytes, ..., Flags = 0x02000000) -- Read from C cache (4 bytes @ 0x20003B40) - Data: EF BE AD DE  returns 0x04 (0000ms, 18273ms total)
T0388 1154:830 JLINK_ReadMemEx(0x20003B44, 0x0004 Bytes, ..., Flags = 0x02000000) -- Read from C cache (4 bytes @ 0x20003B44) - Data: EF BE AD DE  returns 0x04 (0000ms, 18274ms total)
T0388 1154:830 JLINK_ReadMemEx(0x20003B48, 0x0004 Bytes, ..., Flags = 0x02000000) -- Read from C cache (4 bytes @ 0x20003B48) - Data: EF BE AD DE  returns 0x04 (0000ms, 18274ms total)
T0388 1154:836 JLINK_ReadMemU32(0xE0001004, 0x0001 Items, ...) -- CPU_ReadMem(4 bytes @ 0xE0001004) - Data: 0D 62 35 00  returns 0x01 (0002ms, 18276ms total)
T0388 1156:983 JLINK_SetResetType(JLINKARM_CM3_RESET_TYPE_NORMAL)  returns JLINKARM_CM3_RESET_TYPE_NORMAL (0000ms, 18276ms total)
T0388 1156:983 JLINK_Reset() -- CPU_WriteMem(4 bytes @ 0xE000EDF0) -- CPU_WriteMem(4 bytes @ 0xE000EDFC)Reset: Halt core after reset via DEMCR.VC_CORERESET. >0x35 TIF>Reset: Reset device via AIRCR.SYSRESETREQ. -- CPU_WriteMem(4 bytes @ 0xE000ED0C) >0x0D TIF> >0x28 TIF> -- CPU_ReadMem(4 bytes @ 0xE000EDF0) -- CPU_ReadMem(4 bytes @ 0xE000EDF0) -- CPU_WriteMem(4 bytes @ 0xE000EDF0) -- CPU_WriteMem(4 bytes @ 0xE000EDFC) -- CPU_ReadMem(4 bytes @ 0xE000EDF0) -- CPU_WriteMem(4 bytes @ 0xE0002000)
 -- CPU_ReadMem(4 bytes @ 0xE000EDFC) -- CPU_ReadMem(4 bytes @ 0xE0001000) (0074ms, 18350ms total)
T0388 1157:057 JLINK_ReadReg(R15 (PC))  returns 0x08004D48 (0000ms, 18350ms total)
T0388 1157:058 JLINK_ReadReg(XPSR)  returns 0x01000000 (0000ms, 18350ms total)
T0388 1157:058 JLINK_ReadReg(R0)  returns 0x00000000 (0000ms, 18350ms total)
T0388 1157:058 JLINK_ReadReg(R1)  returns 0x6C000000 (0000ms, 18350ms total)
T0388 1157:058 JLINK_ReadReg(R2)  returns 0x0000FFFF (0000ms, 18350ms total)
T0388 1157:058 JLINK_ReadReg(R3)  returns 0x00000064 (0000ms, 18350ms total)
T0388 1157:058 JLINK_ReadReg(R4)  returns 0x00000000 (0000ms, 18350ms total)
T0388 1157:058 JLINK_ReadReg(R5)  returns 0x00000003 (0000ms, 18350ms total)
T0388 1157:058 JLINK_ReadReg(R6)  returns 0x00000000 (0000ms, 18350ms total)
T0388 1157:058 JLINK_ReadReg(R7)  returns 0x00000000 (0000ms, 18350ms total)
T0388 1157:058 JLINK_ReadReg(R8)  returns 0x00000064 (0000ms, 18350ms total)
T0388 1157:059 JLINK_ReadReg(R9)  returns 0x00000064 (0000ms, 18350ms total)
T0388 1157:059 JLINK_ReadReg(R10)  returns 0xDEADBEEF (0000ms, 18350ms total)
T0388 1157:059 JLINK_ReadReg(R11)  returns 0xDEADBEEF (0000ms, 18350ms total)
T0388 1157:059 JLINK_ReadReg(R12)  returns 0x00000000 (0000ms, 18350ms total)
T0388 1157:059 JLINK_ReadReg(R13 (SP))  returns 0x20002350 (0000ms, 18350ms total)
T0388 1157:059 JLINK_ReadReg(R14)  returns 0xFFFFFFFF (0000ms, 18350ms total)
T0388 1157:059 JLINK_ReadReg(R15 (PC))  returns 0x08004D48 (0000ms, 18350ms total)
T0388 1157:059 JLINK_ReadReg(XPSR)  returns 0x01000000 (0000ms, 18350ms total)
T0388 1157:059 JLINK_ReadReg(MSP)  returns 0x20002350 (0000ms, 18350ms total)
T0388 1157:059 JLINK_ReadReg(PSP)  returns 0x20003B30 (0000ms, 18350ms total)
T0388 1157:059 JLINK_ReadReg(CFBP)  returns 0x00000000 (0000ms, 18350ms total)
T0388 1157:059 JLINK_ReadMemU32(0xE0001004, 0x0001 Items, ...) - Data: 00 00 00 00  returns 0x01 (0000ms, 18350ms total)
T0388 1157:067 JLINK_ReadMemEx(0x08004C48, 0x003C Bytes, ..., Flags = 0x02000000) -- CPU_ReadMem(128 bytes @ 0x08004C40) -- Updating C cache (128 bytes @ 0x08004C40) -- Read from C cache (60 bytes @ 0x08004C48) - Data: 0E 46 17 46 1D 46 4F F0 00 08 FF F7 17 FE 80 46 ...  returns 0x3C (0001ms, 18351ms total)
T0388 1157:068 JLINK_ReadMemEx(0x08004C84, 0x003C Bytes, ..., Flags = 0x02000000) -- Read from C cache (60 bytes @ 0x08004C84) - Data: 00 28 E8 D0 10 2F 02 D1 60 69 30 60 01 E0 60 6B ...  returns 0x3C (0000ms, 18351ms total)
T0388 1157:068 JLINK_ReadMemEx(0x08004CC0, 0x003C Bytes, ..., Flags = 0x02000000) -- CPU_ReadMem(64 bytes @ 0x08004CC0) -- Updating C cache (64 bytes @ 0x08004CC0) -- Read from C cache (60 bytes @ 0x08004CC0) - Data: D1 E9 00 03 40 EA 03 20 0B 89 40 EA 03 40 0B 7B ...  returns 0x3C (0002ms, 18353ms total)
T0388 1157:070 JLINK_ReadMemEx(0x08004CFC, 0x003C Bytes, ..., Flags = 0x02000000) -- CPU_ReadMem(64 bytes @ 0x08004D00) -- Updating C cache (64 bytes @ 0x08004D00) -- Read from C cache (60 bytes @ 0x08004CFC) - Data: D1 E9 00 03 40 EA 03 20 0B 89 40 EA 03 40 0B 7B ...  returns 0x3C (0001ms, 18354ms total)
T0388 1157:071 JLINK_ReadMemEx(0x08004D38, 0x003C Bytes, ..., Flags = 0x02000000) -- CPU_ReadMem(64 bytes @ 0x08004D40) -- Updating C cache (64 bytes @ 0x08004D40) -- Read from C cache (60 bytes @ 0x08004D38) - Data: 81 00 F7 FF 00 00 F0 CF 81 01 F0 FF C5 01 FE FF ...  returns 0x3C (0001ms, 18355ms total)
T0108 1160:587 JLINK_ReadMemEx(0x08004D48, 0x0002 Bytes, ..., Flags = 0x02000000) -- Read from C cache (2 bytes @ 0x08004D48) - Data: 06 48  returns 0x02 (0000ms, 18355ms total)
T0108 1160:587 JLINK_SetBPEx(Addr = 0x080013D6, Type = 0xFFFFFFF2)  returns 0x00000005 (0000ms, 18355ms total)
T0108 1160:587 JLINK_Go() -- CPU_WriteMem(4 bytes @ 0xE0002000) -- CPU_ReadMem(4 bytes @ 0xE0001000) -- CPU_WriteMem(4 bytes @ 0xE0002008) -- CPU_WriteMem(4 bytes @ 0xE000200C) -- CPU_WriteMem(4 bytes @ 0xE0002010) -- CPU_WriteMem(4 bytes @ 0xE0002014) -- CPU_WriteMem(4 bytes @ 0xE0002018) -- CPU_WriteMem(4 bytes @ 0xE000201C) -- CPU_WriteMem(4 bytes @ 0xE0001004) (0007ms, 18362ms total)
T0108 1160:694 JLINK_IsHalted()  returns TRUE (0003ms, 18365ms total)
T0108 1160:697 JLINK_Halt()  returns 0x00 (0000ms, 18362ms total)
T0108 1160:697 JLINK_IsHalted()  returns TRUE (0000ms, 18362ms total)
T0108 1160:697 JLINK_IsHalted()  returns TRUE (0000ms, 18362ms total)
T0108 1160:697 JLINK_IsHalted()  returns TRUE (0001ms, 18363ms total)
T0108 1160:698 JLINK_ReadReg(R15 (PC))  returns 0x080013D6 (0000ms, 18362ms total)
T0108 1160:698 JLINK_ReadReg(XPSR)  returns 0x81000000 (0000ms, 18362ms total)
T0108 1160:698 JLINK_ClrBPEx(BPHandle = 0x00000005)  returns 0x00 (0000ms, 18362ms total)
T0108 1160:698 JLINK_ReadMemU32(0xE000ED30, 0x0001 Items, ...) -- CPU_ReadMem(4 bytes @ 0xE000ED30) - Data: 02 00 00 00  returns 0x01 (0001ms, 18363ms total)
T0108 1160:699 JLINK_ReadMemU32(0xE0001028, 0x0001 Items, ...) -- CPU_ReadMem(4 bytes @ 0xE0001028) - Data: 00 00 00 00  returns 0x01 (0001ms, 18364ms total)
T0108 1160:700 JLINK_ReadMemU32(0xE0001038, 0x0001 Items, ...) -- CPU_ReadMem(4 bytes @ 0xE0001038) - Data: 00 02 00 00  returns 0x01 (0001ms, 18365ms total)
T0108 1160:701 JLINK_ReadMemU32(0xE0001048, 0x0001 Items, ...) -- CPU_ReadMem(4 bytes @ 0xE0001048) - Data: 00 00 00 00  returns 0x01 (0001ms, 18366ms total)
T0108 1160:702 JLINK_ReadMemU32(0xE0001058, 0x0001 Items, ...) -- CPU_ReadMem(4 bytes @ 0xE0001058) - Data: 00 00 00 00  returns 0x01 (0001ms, 18367ms total)
T0108 1160:703 JLINK_ReadReg(R0)  returns 0x00000000 (0000ms, 18367ms total)
T0108 1160:704 JLINK_ReadReg(R1)  returns 0x00000000 (0000ms, 18367ms total)
T0108 1160:704 JLINK_ReadReg(R2)  returns 0x00000064 (0000ms, 18367ms total)
T0108 1160:704 JLINK_ReadReg(R3)  returns 0x00000064 (0000ms, 18367ms total)
T0108 1160:704 JLINK_ReadReg(R4)  returns 0x00000000 (0000ms, 18367ms total)
T0108 1160:704 JLINK_ReadReg(R5)  returns 0x00000000 (0000ms, 18367ms total)
T0108 1160:704 JLINK_ReadReg(R6)  returns 0x00000000 (0000ms, 18367ms total)
T0108 1160:704 JLINK_ReadReg(R7)  returns 0x00000000 (0000ms, 18367ms total)
T0108 1160:704 JLINK_ReadReg(R8)  returns 0x00000064 (0000ms, 18367ms total)
T0108 1160:704 JLINK_ReadReg(R9)  returns 0x00000064 (0000ms, 18367ms total)
T0108 1160:704 JLINK_ReadReg(R10)  returns 0xDEADBEEF (0000ms, 18367ms total)
T0108 1160:704 JLINK_ReadReg(R11)  returns 0xDEADBEEF (0000ms, 18367ms total)
T0108 1160:704 JLINK_ReadReg(R12)  returns 0x00000000 (0000ms, 18367ms total)
T0108 1160:704 JLINK_ReadReg(R13 (SP))  returns 0x20003B30 (0000ms, 18367ms total)
T0108 1160:704 JLINK_ReadReg(R14)  returns 0x08001595 (0000ms, 18367ms total)
T0108 1160:704 JLINK_ReadReg(R15 (PC))  returns 0x080013D6 (0000ms, 18367ms total)
T0108 1160:704 JLINK_ReadReg(XPSR)  returns 0x81000000 (0000ms, 18367ms total)
T0108 1160:704 JLINK_ReadReg(MSP)  returns 0x20002330 (0000ms, 18367ms total)
T0108 1160:704 JLINK_ReadReg(PSP)  returns 0x20003B30 (0001ms, 18368ms total)
T0108 1160:705 JLINK_ReadReg(CFBP)  returns 0x02000000 (0000ms, 18368ms total)
T0388 1160:706 JLINK_ReadMemEx(0x20003B4C, 0x0004 Bytes, ..., Flags = 0x02000000) -- CPU_ReadMem(64 bytes @ 0x20003B40) -- Updating C cache (64 bytes @ 0x20003B40) -- Read from C cache (4 bytes @ 0x20003B4C) - Data: 95 15 00 08  returns 0x04 (0002ms, 18370ms total)
T0388 1160:708 JLINK_ReadMemEx(0x20003B30, 0x0004 Bytes, ..., Flags = 0x02000000) -- CPU_ReadMem(64 bytes @ 0x20003B00) -- Updating C cache (64 bytes @ 0x20003B00) -- Read from C cache (4 bytes @ 0x20003B30) - Data: EF BE AD DE  returns 0x04 (0001ms, 18371ms total)
T0388 1160:709 JLINK_ReadMemEx(0x20003B34, 0x0004 Bytes, ..., Flags = 0x02000000) -- Read from C cache (4 bytes @ 0x20003B34) - Data: EF BE AD DE  returns 0x04 (0000ms, 18371ms total)
T0388 1160:709 JLINK_ReadMemEx(0x20003B38, 0x0004 Bytes, ..., Flags = 0x02000000) -- Read from C cache (4 bytes @ 0x20003B38) - Data: EF BE AD DE  returns 0x04 (0000ms, 18371ms total)
T0388 1160:709 JLINK_ReadMemEx(0x20003B3C, 0x0004 Bytes, ..., Flags = 0x02000000) -- Read from C cache (4 bytes @ 0x20003B3C) - Data: EF BE AD DE  returns 0x04 (0000ms, 18371ms total)
T0388 1160:709 JLINK_ReadMemEx(0x20003B40, 0x0004 Bytes, ..., Flags = 0x02000000) -- Read from C cache (4 bytes @ 0x20003B40) - Data: EF BE AD DE  returns 0x04 (0000ms, 18371ms total)
T0388 1160:709 JLINK_ReadMemEx(0x20003B44, 0x0004 Bytes, ..., Flags = 0x02000000) -- Read from C cache (4 bytes @ 0x20003B44) - Data: EF BE AD DE  returns 0x04 (0000ms, 18371ms total)
T0388 1160:709 JLINK_ReadMemEx(0x20003B48, 0x0004 Bytes, ..., Flags = 0x02000000) -- Read from C cache (4 bytes @ 0x20003B48) - Data: EF BE AD DE  returns 0x04 (0000ms, 18371ms total)
T0388 1160:721 JLINK_ReadMemU32(0xE0001004, 0x0001 Items, ...) -- CPU_ReadMem(4 bytes @ 0xE0001004) - Data: 7C 5F 35 00  returns 0x01 (0002ms, 18373ms total)
T0388 1160:728 JLINK_ReadMemEx(0x080013D2, 0x0002 Bytes, ..., Flags = 0x02000000) -- CPU_ReadMem(64 bytes @ 0x080013C0) -- Updating C cache (64 bytes @ 0x080013C0) -- Read from C cache (2 bytes @ 0x080013D2) - Data: 3D 46  returns 0x02 (0002ms, 18375ms total)
T0388 1160:730 JLINK_ReadMemEx(0x080013D4, 0x002C Bytes, ..., Flags = 0x02000000) -- Read from C cache (44 bytes @ 0x080013D4) - Data: 06 E0 BD F8 20 20 A9 B2 A0 B2 FF F7 FB FE 6D 1C ...  returns 0x2C (0000ms, 18375ms total)
T0388 1160:730 JLINK_ReadMemEx(0x08001400, 0x0010 Bytes, ..., Flags = 0x02000000) -- CPU_ReadMem(64 bytes @ 0x08001400) -- Updating C cache (64 bytes @ 0x08001400) -- Read from C cache (16 bytes @ 0x08001400) - Data: 70 47 70 B5 05 46 0C 46 28 46 FF F7 F2 FF 20 46  returns 0x10 (0001ms, 18376ms total)
T0108 1162:351 JLINK_ReadMemEx(0x080013D6, 0x0002 Bytes, ..., Flags = 0x02000000) -- Read from C cache (2 bytes @ 0x080013D6) - Data: BD F8  returns 0x02 (0000ms, 18376ms total)
T0108 1162:351 JLINK_Step() -- Read from C cache (2 bytes @ 0x080013D6) -- Read from C cache (2 bytes @ 0x080013D8) -- Not simulated -- CPU_WriteMem(4 bytes @ 0xE0002008)  returns 0x00 (0007ms, 18383ms total)
T0108 1162:358 JLINK_ReadReg(R15 (PC))  returns 0x080013DA (0000ms, 18383ms total)
T0108 1162:358 JLINK_ReadReg(XPSR)  returns 0x81000000 (0000ms, 18383ms total)
T0108 1162:358 JLINK_SetBPEx(Addr = 0x080013D6, Type = 0xFFFFFFF2)  returns 0x00000006 (0000ms, 18383ms total)
T0108 1162:358 JLINK_Go() -- CPU_WriteMem(4 bytes @ 0xE0002000) -- CPU_ReadMem(4 bytes @ 0xE0001000) -- CPU_WriteMem(4 bytes @ 0xE0002008) (0004ms, 18387ms total)
T0108 1162:462 JLINK_IsHalted()  returns TRUE (0003ms, 18390ms total)
T0108 1162:465 JLINK_Halt()  returns 0x00 (0000ms, 18387ms total)
T0108 1162:465 JLINK_IsHalted()  returns TRUE (0000ms, 18387ms total)
T0108 1162:465 JLINK_IsHalted()  returns TRUE (0000ms, 18387ms total)
T0108 1162:465 JLINK_IsHalted()  returns TRUE (0000ms, 18387ms total)
T0108 1162:465 JLINK_ReadReg(R15 (PC))  returns 0x080013D6 (0000ms, 18387ms total)
T0108 1162:465 JLINK_ReadReg(XPSR)  returns 0x81000000 (0000ms, 18387ms total)
T0108 1162:466 JLINK_ClrBPEx(BPHandle = 0x00000006)  returns 0x00 (0000ms, 18388ms total)
T0108 1162:466 JLINK_ReadMemU32(0xE000ED30, 0x0001 Items, ...) -- CPU_ReadMem(4 bytes @ 0xE000ED30) - Data: 02 00 00 00  returns 0x01 (0000ms, 18388ms total)
T0108 1162:466 JLINK_ReadMemU32(0xE0001028, 0x0001 Items, ...) -- CPU_ReadMem(4 bytes @ 0xE0001028) - Data: 00 00 00 00  returns 0x01 (0001ms, 18389ms total)
T0108 1162:467 JLINK_ReadMemU32(0xE0001038, 0x0001 Items, ...) -- CPU_ReadMem(4 bytes @ 0xE0001038) - Data: 00 02 00 00  returns 0x01 (0001ms, 18390ms total)
T0108 1162:468 JLINK_ReadMemU32(0xE0001048, 0x0001 Items, ...) -- CPU_ReadMem(4 bytes @ 0xE0001048) - Data: 00 00 00 00  returns 0x01 (0001ms, 18391ms total)
T0108 1162:469 JLINK_ReadMemU32(0xE0001058, 0x0001 Items, ...) -- CPU_ReadMem(4 bytes @ 0xE0001058) - Data: 00 00 00 00  returns 0x01 (0001ms, 18392ms total)
T0108 1162:470 JLINK_ReadReg(R0)  returns 0x00000000 (0000ms, 18392ms total)
T0108 1162:470 JLINK_ReadReg(R1)  returns 0x6C000000 (0000ms, 18392ms total)
T0108 1162:470 JLINK_ReadReg(R2)  returns 0x0000FFFF (0000ms, 18392ms total)
T0108 1162:470 JLINK_ReadReg(R3)  returns 0x00000064 (0000ms, 18392ms total)
T0108 1162:470 JLINK_ReadReg(R4)  returns 0x00000000 (0000ms, 18392ms total)
